QuestaSim-64 qrun 2023.1 Utility 2023.01 Jan 23 2023
Start time: 07:13:28 on Jun 24,2024
qrun -batch -access=rw+/. -uvmhome uvm-1.2 -timescale 1ns/1ns -mfcu design.sv testbench.sv -voptargs="+acc=npr" -do " run -all; exit" 
Creating library 'qrun.out/work'.
Mapping library 'mtiUvm' to 'qrun.out/work'.
QuestaSim-64 vlog 2023.1 Compiler 2023.01 Jan 23 2023
Start time: 07:13:28 on Jun 24,2024
vlog -timescale 1ns/1ns -mfcu -ccflags "-Wno-missing-declarations" -ccflags "-Wno-maybe-uninitialized" -ccflags "-Wno-return-type" -ccflags "-DQUESTA" /usr/share/questa/questasim/verilog_src/uvm-1.2/src/dpi/uvm_dpi.cc /usr/share/questa/questasim/verilog_src/uvm-1.2/src/uvm_pkg.sv /usr/share/questa/questasim/verilog_src/questa_uvm_pkg-1.2/src/questa_uvm_pkg.sv design.sv testbench.sv -work qrun.out/work "+incdir+/usr/share/questa/questasim/verilog_src/uvm-1.2/src" -csession=incr -writesessionid "+qrun.out/top_dus" -statslog qrun.out/stats_log 
-- Compiling package uvm_pkg (uvm-1.2 Built-in)
-- Compiling package questa_uvm_pkg
-- Importing package uvm_pkg (uvm-1.2 Built-in)
-- Compiling module apb_ram
-- Compiling package uvm_pkg_sv_unit
-- Importing package uvm_pkg (uvm-1.2 Built-in)
-- Importing package apb_pkg
-- Compiling package apb_pkg
-- Compiling interface apb_intf
-- Compiling module tb_top

Top level modules:
	tb_top
-- Compiling DPI/PLI C++ file /usr/share/questa/questasim/verilog_src/uvm-1.2/src/dpi/uvm_dpi.cc

In file included from /usr/share/questa/questasim/verilog_src/uvm-1.2/src/dpi/uvm_hdl.c:27,
                 from /usr/share/questa/questasim/verilog_src/uvm-1.2/src/dpi/uvm_dpi.cc:37:
/usr/share/questa/questasim/verilog_src/uvm-1.2/src/dpi/uvm_hdl_questa.c: In function 'int uvm_is_vhdl_path(char*)':
/usr/share/questa/questasim/verilog_src/uvm-1.2/src/dpi/uvm_hdl_questa.c:90:12: warning: 'char* strncpy(char*, const char*, size_t)' specified bound depends on the length of the source argument [-Wstringop-overflow=]
   90 |     strncpy(path_copy, path, path_len);
      |     ~~~~~~~^~~~~~~~~~~~~~~~~~~~~~~~~~~
/usr/share/questa/questasim/verilog_src/uvm-1.2/src/dpi/uvm_hdl_questa.c:72:20: note: length computed here
   72 |   path_len = strlen(path);
      |              ~~~~~~^~~~~~

End time: 07:13:31 on Jun 24,2024, Elapsed time: 0:00:03
Errors: 0, Warnings: 0
QuestaSim-64 vopt 2023.1 Compiler 2023.01 Jan 23 2023
** Warning: (vopt-10587) Some optimizations are turned off because the +acc switch is in effect. This will cause your simulation to run slowly. Please use -access/-debug to maintain needed visibility.
Start time: 07:13:31 on Jun 24,2024
vopt -access=rw+/. -timescale 1ns/1ns -mfcu "+acc=npr" -findtoplevels /home/runner/qrun.out/work+0+ -work qrun.out/work -statslog qrun.out/stats_log -o qrun_opt 

Top level modules:
	tb_top

Analyzing design...
-- Loading module tb_top
-- Loading package questa_uvm_pkg
-- Loading interface apb_intf
-- Loading module apb_ram
Optimizing 8 design-units (inlining 0/3 module instances):
-- Optimizing package uvm_pkg (uvm-1.2 Built-in)(fast)
-- Optimizing package questa_uvm_pkg(fast)
-- Optimizing package apb_pkg(fast)
-- Optimizing package uvm_pkg_sv_unit(fast)
-- Optimizing interface apb_intf(fast__2)
-- Optimizing module apb_ram(fast)
-- Optimizing module tb_top(fast)
-- Optimizing interface apb_intf(fast)
Optimized design name is qrun_opt
End time: 07:13:38 on Jun 24,2024, Elapsed time: 0:00:07
Errors: 0, Warnings: 1
# vsim -batch -voptargs="+acc=npr" -lib qrun.out/work -do " run -all; exit" -statslog qrun.out/stats_log qrun_opt -appendlog -l qrun.log -csession=incr 
# Start time: 07:13:38 on Jun 24,2024
# Loading /tmp/unknown@65c9c738624d_dpi_8/linux_x86_64_gcc-10.3.0/export_tramp.so
# //  Questa Sim-64
# //  Version 2023.1 linux_x86_64 Jan 23 2023
# //
# //  Copyright 1991-2023 Mentor Graphics Corporation
# //  All Rights Reserved.
# //
# //  QuestaSim and its associated documentation contain trade
# //  secrets and commercial or financial information that are the property of
# //  Mentor Graphics Corporation and are privileged, confidential,
# //  and exempt from disclosure under the Freedom of Information Act,
# //  5 U.S.C. Section 552. Furthermore, this information
# //  is prohibited from disclosure under the Trade Secrets Act,
# //  18 U.S.C. Section 1905.
# //
# Loading sv_std.std
# Loading work.apb_intf(fast)
# Loading work.uvm_pkg(fast)
# Loading work.apb_pkg(fast)
# Loading work.uvm_pkg_sv_unit(fast)
# Loading work.questa_uvm_pkg(fast)
# Loading work.tb_top(fast)
# Loading work.apb_intf(fast__2)
# Loading work.apb_ram(fast)
# Compiling /tmp/unknown@65c9c738624d_dpi_8/linux_x86_64_gcc-10.3.0/exportwrapper.c
# Loading /tmp/unknown@65c9c738624d_dpi_8/linux_x86_64_gcc-10.3.0/vsim_auto_compile.so
# 
# run -all
# UVM_INFO /usr/share/questa/questasim/verilog_src/uvm-1.2/src/base/uvm_root.svh(392) @ 0: reporter [UVM/RELNOTES] 
# ----------------------------------------------------------------
# UVM-1.2
# (C) 2007-2014 Mentor Graphics Corporation
# (C) 2007-2014 Cadence Design Systems, Inc.
# (C) 2006-2014 Synopsys, Inc.
# (C) 2011-2013 Cypress Semiconductor Corp.
# (C) 2013-2014 NVIDIA Corporation
# ----------------------------------------------------------------
# 
#   ***********       IMPORTANT RELEASE NOTES         ************
# 
#   You are using a version of the UVM library that has been compiled
#   with `UVM_NO_DEPRECATED undefined.
#   See http://www.eda.org/svdb/view.php?id=3313 for more details.
# 
#   You are using a version of the UVM library that has been compiled
#   with `UVM_OBJECT_DO_NOT_NEED_CONSTRUCTOR undefined.
#   See http://www.eda.org/svdb/view.php?id=3770 for more details.
# 
#       (Specify +UVM_NO_RELNOTES to turn off this notice)
# 
# UVM_INFO /usr/share/questa/questasim/verilog_src/questa_uvm_pkg-1.2/src/questa_uvm_pkg.sv(277) @ 0: reporter [Questa UVM] QUESTA_UVM-1.2.3
# UVM_INFO /usr/share/questa/questasim/verilog_src/questa_uvm_pkg-1.2/src/questa_uvm_pkg.sv(278) @ 0: reporter [Questa UVM]  questa_uvm::init(+struct)
# UVM_INFO apb_test.sv(12) @ 0: uvm_test_top [APB_TEST ] Inside APB_Test new 
# UVM_INFO @ 0: reporter [RNTST] Running test apb_test...
# UVM_INFO apb_env.sv(11) @ 0: uvm_test_top.h_env [APB_ENV ] Inside APB_ENV new
# UVM_INFO apb_seq.sv(8) @ 0: reporter@@h_seq [APB_SEQ ] Inside APB_SEQ new
# UVM_INFO apb_vseq.sv(11) @ 0: reporter@@h_vseq [APB_VSEQ ] Inside APB_VSEQ new
# UVM_INFO master_agent_config.sv(17) @ 0: reporter [master_agent_config] Inside new
# UVM_INFO slave_agent_config.sv(12) @ 0: reporter [slaves_agent_config] Inside new
# UVM_INFO apb_test.sv(25) @ 0: uvm_test_top [APB_TEST ] Inside APB_Test Build Phase
# UVM_INFO apb_scoreboard.sv(21) @ 0: uvm_test_top.h_env.h_scbd [APB_Scoreboard ] Inside apb_scoreboard NEW
# UVM_INFO master_vseqr.sv(7) @ 0: uvm_test_top.h_env.h_vseqr [MASTER_VSEQR ] Inside MASTER_VSEQR new
# UVM_INFO apb_cov_collector.sv(19) @ 0: uvm_test_top.h_env.h_cov [APB_COV_COLLECTOR ] Inside APB_COV_COLLECTOR  NEW
# UVM_INFO apb_env.sv(21) @ 0: uvm_test_top.h_env [APB_ENV ] Inside APB_ENV Build Phase
# UVM_INFO master_agent.sv(11) @ 0: uvm_test_top.h_env.h_master_agent [MASTER_AGENT ] Inside MASTER_AGENT NEW
# UVM_INFO slave_agent.sv(8) @ 0: uvm_test_top.h_env.h_slave_agent [SLAVE_AGENT ] Inside SLAVE_AGENT NEW
# UVM_INFO apb_cov_collector.sv(25) @ 0: uvm_test_top.h_env.h_cov [APB_COV_COLLECTOR ] Inside APB_COV_COLLECTOR BUILD PHASE
# UVM_INFO master_monitor.sv(9) @ 0: uvm_test_top.h_env.h_master_agent.h_master_mon [MASTER_MONITOR ] Inside MASTER_MONITOR NEW
# UVM_INFO master_seqr.sv(7) @ 0: uvm_test_top.h_env.h_master_agent.h_seqr [MASTER_SEQr ] Inside MASTER_SEQR NEW
# UVM_INFO master_agent.sv(35) @ 0: uvm_test_top.h_env.h_master_agent [MASTER_AGENT ] Inside MASTER_AGENT BUILD PHASE
# UVM_INFO master_driver.sv(11) @ 0: uvm_test_top.h_env.h_master_agent.h_driv [Master_Driver] Inside Master_Driver Build Phase 
# UVM_INFO master_monitor.sv(18) @ 0: uvm_test_top.h_env.h_master_agent.h_master_mon [MASTER_MONITOR ] Inside MASTER_AMONITORBUILD PHASE
# UVM_INFO master_seqr.sv(12) @ 0: uvm_test_top.h_env.h_master_agent.h_seqr [MASTER_SEQr ] Inside MASTER_SEQR BUILD PHASE
# UVM_INFO apb_scoreboard.sv(28) @ 0: uvm_test_top.h_env.h_scbd [APB_Scoreboard ] Inside apb_scoreboard Build Phase
# UVM_INFO slave_agent.sv(14) @ 0: uvm_test_top.h_env.h_slave_agent [SLAVE_AGENT ] Inside SLAVE_AGENT BUILD PHASE
# UVM_INFO slave_monitor.sv(8) @ 0: uvm_test_top.h_env.h_slave_agent.h_slave_mon [SLAVE_MONITOR ] Inside SLAVE_MONITOR NEW
# UVM_INFO slave_monitor.sv(14) @ 0: uvm_test_top.h_env.h_slave_agent.h_slave_mon [SLAVE_MONITOR ] Inside SLAVE_MONITOR BUILD PHASE
# UVM_INFO apb_cov_collector.sv(30) @ 0: uvm_test_top.h_env.h_cov [APB_COV_COLLECTOR ] Inside APB_COV_COLLECTOR CONNECT PHASE
# UVM_INFO master_monitor.sv(23) @ 0: uvm_test_top.h_env.h_master_agent.h_master_mon [MASTER_MONITOR ] Inside MASTER_MONITOR CONNECT PHASE
# UVM_INFO master_seqr.sv(17) @ 0: uvm_test_top.h_env.h_master_agent.h_seqr [MASTER_SEQr ] Inside MASTER_SEQR CONNECT PHASE
# UVM_INFO master_agent.sv(40) @ 0: uvm_test_top.h_env.h_master_agent [MASTER_AGENT ] Inside MASTER_AGENT CONNECT PHASE
# UVM_INFO apb_scoreboard.sv(33) @ 0: uvm_test_top.h_env.h_scbd [APB_Scoreboard ] Inside apb_scoreboard CONNECT Phase
# UVM_INFO slave_monitor.sv(24) @ 0: uvm_test_top.h_env.h_slave_agent.h_slave_mon [SLAVE_MONITOR ] Inside SLAVE_MONITOR CONNECT PHASE
# UVM_INFO slave_agent.sv(28) @ 0: uvm_test_top.h_env.h_slave_agent [SLAVE_AGENT ] Inside SLAVE_AGENT CONNECT PHASE
# UVM_INFO apb_env.sv(41) @ 0: uvm_test_top.h_env [APB_ENV ] Inside APB_ENV Connect phase
# UVM_INFO apb_test.sv(37) @ 0: uvm_test_top [APB_TEST ] Inside APB_Test Connect Phase
# UVM_INFO /usr/share/questa/questasim/verilog_src/uvm-1.2/src/base/uvm_root.svh(579) @ 0: reporter [UVMTOP] UVM testbench topology:
# ------------------------------------------------------------------
# Name                          Type                     Size  Value
# ------------------------------------------------------------------
# uvm_test_top                  apb_test                 -     @365 
#   h_env                       apb_env                  -     @379 
#     h_cov                     apb_cov_collector        -     @561 
#       analysis_imp            uvm_analysis_imp         -     @569 
#     h_master_agent            master_agent             -     @583 
#       h_driv                  master_driver            -     @742 
#         rsp_port              uvm_analysis_port        -     @759 
#         seq_item_port         uvm_seq_item_pull_port   -     @750 
#       h_master_mon            master_monitor           -     @607 
#         master_mon2scbd       uvm_analysis_port        -     @773 
#       h_seqr                  master_seqr              -     @617 
#         rsp_export            uvm_analysis_export      -     @625 
#         seq_item_export       uvm_seq_item_pull_imp    -     @731 
#         arbitration_queue     array                    0     -    
#         lock_queue            array                    0     -    
#         num_last_reqs         integral                 32    'd1  
#         num_last_rsps         integral                 32    'd1  
#     h_scbd                    apb_scoreboard           -     @426 
#       master_mon2sb_imp_port  uvm_analysis_imp_ip_imp  -     @792 
#       slave_mon2sb_imp_port   uvm_analysis_imp_op_imp  -     @801 
#     h_slave_agent             slave_agent              -     @593 
#       h_slave_mon             slave_monitor            -     @816 
#         slave_mon2scbd        uvm_analysis_port        -     @826 
#     h_vseqr                   master_vseqr             -     @436 
#       rsp_export              uvm_analysis_export      -     @444 
#       seq_item_export         uvm_seq_item_pull_imp    -     @550 
#       arbitration_queue       array                    0     -    
#       lock_queue              array                    0     -    
#       num_last_reqs           integral                 32    'd1  
#       num_last_rsps           integral                 32    'd1  
# ------------------------------------------------------------------
# 
# UVM_INFO apb_test.sv(43) @ 0: uvm_test_top [APB_TEST ] Inside APB_Test end_of_elaboration Phase
# UVM_INFO apb_test.sv(48) @ 0: uvm_test_top [APB_Test ] InsideAPB_ Test Run Phase
# UVM_INFO apb_env.sv(52) @ 0: uvm_test_top.h_env [APB_ENV ] Inside APB_ENV Run phase
# UVM_INFO slave_agent.sv(33) @ 0: uvm_test_top.h_env.h_slave_agent [SLAVE_AGENT ] Inside SLAVE_AGENT RUN PHASE
# UVM_INFO slave_monitor.sv(29) @ 0: uvm_test_top.h_env.h_slave_agent.h_slave_mon [SLAVE_MONITOR ] Inside SLAVE_MONITOR RUN PHASE
# UVM_INFO apb_scoreboard.sv(54) @ 0: uvm_test_top.h_env.h_scbd [APB_Scoreboard ] Inside apb_scoreboard RUN Phase
# UVM_INFO apb_seq_item.sv(28) @ 0: reporter@@apb_seq_item [APB_SEQ_ITEM] Inside APB_ SEQ_item NEW 
# UVM_INFO apb_seq_item.sv(28) @ 0: reporter@@apb_seq_item [APB_SEQ_ITEM] Inside APB_ SEQ_item NEW 
# UVM_INFO master_agent.sv(47) @ 0: uvm_test_top.h_env.h_master_agent [MASTER_AGENT ] Inside MASTER_AGENT RUN PHASE
# UVM_INFO master_seqr.sv(22) @ 0: uvm_test_top.h_env.h_master_agent.h_seqr [MASTER_SEQr ] Inside MASTER_SEQR RUN PHASE
# UVM_INFO master_monitor.sv(28) @ 0: uvm_test_top.h_env.h_master_agent.h_master_mon [MASTER_MONITOR ] Inside MASTER_MONITOR RUN PHASE
# UVM_INFO apb_cov_collector.sv(35) @ 0: uvm_test_top.h_env.h_cov [APB_COV_COLLECTOR ] Inside APB_COV_COLLECTOR  RUN PHASE
# UVM_INFO apb_seq.sv(8) @ 0: reporter@@h_apb_seq [APB_SEQ ] Inside APB_SEQ new
# UVM_INFO apb_seq_item.sv(28) @ 0: reporter@@h_item [APB_SEQ_ITEM] Inside APB_ SEQ_item NEW 
# UVM_INFO apb_seq_item.sv(28) @ 10: reporter@@h_item [APB_SEQ_ITEM] Inside APB_ SEQ_item NEW 
# UVM_INFO master_monitor.sv(41) @ 10: uvm_test_top.h_env.h_master_agent.h_master_mon [MASTER_MONITOR] Packet in master_monitor => ------------------------------------
# Name       Type          Size  Value
# ------------------------------------
# h_item     apb_seq_item  -     @965 
#   paddr    integral      32    'h5  
#   psel     integral      1     'h0  
#   penable  integral      1     'h0  
#   pwrite   integral      1     'h1  
#   pwdata   integral      32    'h1e 
#   prdata   integral      32    'h0  
#   pslverr  integral      1     'h0  
#   pready   integral      1     'h0  
# ------------------------------------
#  items
# UVM_INFO apb_cov_collector.sv(41) @ 10: uvm_test_top.h_env.h_cov [coverage_collector] the functional coverage is:        54
# UVM_INFO apb_cov_collector.sv(42) @ 10: uvm_test_top.h_env.h_cov [APB_COV_COLLECTOR ] Inside APB_COV_COLLECTOR  RUN PHASE
# UVM_INFO apb_seq_item.sv(28) @ 14: reporter@@h_item [APB_SEQ_ITEM] Inside APB_ SEQ_item NEW 
# UVM_INFO master_monitor.sv(41) @ 14: uvm_test_top.h_env.h_master_agent.h_master_mon [MASTER_MONITOR] Packet in master_monitor => ------------------------------------
# Name       Type          Size  Value
# ------------------------------------
# h_item     apb_seq_item  -     @977 
#   paddr    integral      32    'h5  
#   psel     integral      1     'h1  
#   penable  integral      1     'h0  
#   pwrite   integral      1     'h1  
#   pwdata   integral      32    'h1e 
#   prdata   integral      32    'h0  
#   pslverr  integral      1     'h0  
#   pready   integral      1     'h0  
# ------------------------------------
#  items
# UVM_INFO apb_cov_collector.sv(41) @ 14: uvm_test_top.h_env.h_cov [coverage_collector] the functional coverage is:        60
# UVM_INFO apb_cov_collector.sv(42) @ 14: uvm_test_top.h_env.h_cov [APB_COV_COLLECTOR ] Inside APB_COV_COLLECTOR  RUN PHASE
# UVM_INFO master_driver.sv(33) @ 14: uvm_test_top.h_env.h_master_agent.h_driv [APB_Driver] Packet in driver => -----------------------------------------------------------------------------------------------------
# Name                           Type          Size  Value                                             
# -----------------------------------------------------------------------------------------------------
# h_item                         apb_seq_item  -     @923                                              
#   paddr                        integral      32    'h5                                               
#   psel                         integral      1     'h0                                               
#   penable                      integral      1     'h0                                               
#   pwrite                       integral      1     'h1                                               
#   pwdata                       integral      32    'h1e                                              
#   prdata                       integral      32    'h0                                               
#   pslverr                      integral      1     'h0                                               
#   pready                       integral      1     'h0                                               
#   begin_time                   time          64    6                                                 
#   depth                        int           32    'd2                                               
#   parent sequence (name)       string        9     h_apb_seq                                         
#   parent sequence (full name)  string        50    uvm_test_top.h_env.h_master_agent.h_seqr.h_apb_seq
#   sequencer                    string        40    uvm_test_top.h_env.h_master_agent.h_seqr          
# -----------------------------------------------------------------------------------------------------
#  items
# UVM_INFO apb_seq.sv(25) @ 14: uvm_test_top.h_env.h_master_agent.h_seqr@@h_apb_seq [apb__seq] Done generation in sequence => -----------------------------------------------------------------------------------------------------
# Name                           Type          Size  Value                                             
# -----------------------------------------------------------------------------------------------------
# h_item                         apb_seq_item  -     @923                                              
#   paddr                        integral      32    'h5                                               
#   psel                         integral      1     'h0                                               
#   penable                      integral      1     'h0                                               
#   pwrite                       integral      1     'h1                                               
#   pwdata                       integral      32    'h1e                                              
#   prdata                       integral      32    'h0                                               
#   pslverr                      integral      1     'h0                                               
#   pready                       integral      1     'h0                                               
#   begin_time                   time          64    6                                                 
#   end_time                     time          64    14                                                
#   depth                        int           32    'd2                                               
#   parent sequence (name)       string        9     h_apb_seq                                         
#   parent sequence (full name)  string        50    uvm_test_top.h_env.h_master_agent.h_seqr.h_apb_seq
#   sequencer                    string        40    uvm_test_top.h_env.h_master_agent.h_seqr          
# -----------------------------------------------------------------------------------------------------
#  items
# -----------------------------------------------------------------------------------------------------
# Name                           Type          Size  Value                                             
# -----------------------------------------------------------------------------------------------------
# h_item                         apb_seq_item  -     @923                                              
#   paddr                        integral      32    'h5                                               
#   psel                         integral      1     'h0                                               
#   penable                      integral      1     'h0                                               
#   pwrite                       integral      1     'h1                                               
#   pwdata                       integral      32    'h1e                                              
#   prdata                       integral      32    'h0                                               
#   pslverr                      integral      1     'h0                                               
#   pready                       integral      1     'h0                                               
#   begin_time                   time          64    6                                                 
#   end_time                     time          64    14                                                
#   depth                        int           32    'd2                                               
#   parent sequence (name)       string        9     h_apb_seq                                         
#   parent sequence (full name)  string        50    uvm_test_top.h_env.h_master_agent.h_seqr.h_apb_seq
#   sequencer                    string        40    uvm_test_top.h_env.h_master_agent.h_seqr          
# -----------------------------------------------------------------------------------------------------
# UVM_INFO apb_seq.sv(27) @ 14: uvm_test_top.h_env.h_master_agent.h_seqr@@h_apb_seq [APB_SEQ ] Inside APB_SEQ BODY
# UVM_INFO apb_seq_item.sv(28) @ 18: reporter@@h_item [APB_SEQ_ITEM] Inside APB_ SEQ_item NEW 
# UVM_INFO master_monitor.sv(41) @ 18: uvm_test_top.h_env.h_master_agent.h_master_mon [MASTER_MONITOR] Packet in master_monitor => ------------------------------------
# Name       Type          Size  Value
# ------------------------------------
# h_item     apb_seq_item  -     @996 
#   paddr    integral      32    'h5  
#   psel     integral      1     'h1  
#   penable  integral      1     'h1  
#   pwrite   integral      1     'h1  
#   pwdata   integral      32    'h1e 
#   prdata   integral      32    'h0  
#   pslverr  integral      1     'h0  
#   pready   integral      1     'h0  
# ------------------------------------
#  items
# UVM_INFO apb_cov_collector.sv(41) @ 18: uvm_test_top.h_env.h_cov [coverage_collector] the functional coverage is:        66
# UVM_INFO apb_cov_collector.sv(42) @ 18: uvm_test_top.h_env.h_cov [APB_COV_COLLECTOR ] Inside APB_COV_COLLECTOR  RUN PHASE
# UVM_INFO apb_seq.sv(34) @ 18: uvm_test_top.h_env.h_master_agent.h_seqr@@h_apb_seq [apb__seq] Done generation in sequence => -----------------------------------------------------------------------------------------------------
# Name                           Type          Size  Value                                             
# -----------------------------------------------------------------------------------------------------
# h_item                         apb_seq_item  -     @923                                              
#   paddr                        integral      32    'h5                                               
#   psel                         integral      1     'h0                                               
#   penable                      integral      1     'h0                                               
#   pwrite                       integral      1     'h0                                               
#   pwdata                       integral      32    'h1e                                              
#   prdata                       integral      32    'h0                                               
#   pslverr                      integral      1     'h0                                               
#   pready                       integral      1     'h0                                               
#   begin_time                   time          64    18                                                
#   depth                        int           32    'd2                                               
#   parent sequence (name)       string        9     h_apb_seq                                         
#   parent sequence (full name)  string        50    uvm_test_top.h_env.h_master_agent.h_seqr.h_apb_seq
#   sequencer                    string        40    uvm_test_top.h_env.h_master_agent.h_seqr          
# -----------------------------------------------------------------------------------------------------
#  items
# UVM_INFO apb_seq_item.sv(28) @ 22: reporter@@h_item [APB_SEQ_ITEM] Inside APB_ SEQ_item NEW 
# UVM_INFO slave_monitor.sv(40) @ 22: uvm_test_top.h_env.h_slave_agent.h_slave_mon [slave_MONITOR] Packet in slave_monitor => ------------------------------------
# Name       Type          Size  Value
# ------------------------------------
# h_item     apb_seq_item  -     @1010
#   paddr    integral      32    'h0  
#   psel     integral      1     'h0  
#   penable  integral      1     'h0  
#   pwrite   integral      1     'h0  
#   pwdata   integral      32    'h0  
#   prdata   integral      32    'h0  
#   pslverr  integral      1     'h0  
#   pready   integral      1     'h1  
# ------------------------------------
#  items
# UVM_INFO apb_cov_collector.sv(41) @ 22: uvm_test_top.h_env.h_cov [coverage_collector] the functional coverage is:        79
# UVM_INFO apb_cov_collector.sv(42) @ 22: uvm_test_top.h_env.h_cov [APB_COV_COLLECTOR ] Inside APB_COV_COLLECTOR  RUN PHASE
# UVM_INFO apb_seq_item.sv(28) @ 26: reporter@@h_item [APB_SEQ_ITEM] Inside APB_ SEQ_item NEW 
# UVM_INFO slave_monitor.sv(40) @ 26: uvm_test_top.h_env.h_slave_agent.h_slave_mon [slave_MONITOR] Packet in slave_monitor => ------------------------------------
# Name       Type          Size  Value
# ------------------------------------
# h_item     apb_seq_item  -     @1022
#   paddr    integral      32    'h0  
#   psel     integral      1     'h0  
#   penable  integral      1     'h0  
#   pwrite   integral      1     'h0  
#   pwdata   integral      32    'h0  
#   prdata   integral      32    'h0  
#   pslverr  integral      1     'h0  
#   pready   integral      1     'h0  
# ------------------------------------
#  items
# UVM_INFO apb_cov_collector.sv(41) @ 26: uvm_test_top.h_env.h_cov [coverage_collector] the functional coverage is:        79
# UVM_INFO apb_cov_collector.sv(42) @ 26: uvm_test_top.h_env.h_cov [APB_COV_COLLECTOR ] Inside APB_COV_COLLECTOR  RUN PHASE
# UVM_INFO master_driver.sv(33) @ 26: uvm_test_top.h_env.h_master_agent.h_driv [APB_Driver] Packet in driver => -----------------------------------------------------------------------------------------------------
# Name                           Type          Size  Value                                             
# -----------------------------------------------------------------------------------------------------
# h_item                         apb_seq_item  -     @923                                              
#   paddr                        integral      32    'h5                                               
#   psel                         integral      1     'h0                                               
#   penable                      integral      1     'h0                                               
#   pwrite                       integral      1     'h0                                               
#   pwdata                       integral      32    'h1e                                              
#   prdata                       integral      32    'h0                                               
#   pslverr                      integral      1     'h0                                               
#   pready                       integral      1     'h0                                               
#   begin_time                   time          64    18                                                
#   depth                        int           32    'd2                                               
#   parent sequence (name)       string        9     h_apb_seq                                         
#   parent sequence (full name)  string        50    uvm_test_top.h_env.h_master_agent.h_seqr.h_apb_seq
#   sequencer                    string        40    uvm_test_top.h_env.h_master_agent.h_seqr          
# -----------------------------------------------------------------------------------------------------
#  items
# -----------------------------------------------------------------------------------------------------
# Name                           Type          Size  Value                                             
# -----------------------------------------------------------------------------------------------------
# h_item                         apb_seq_item  -     @923                                              
#   paddr                        integral      32    'h5                                               
#   psel                         integral      1     'h0                                               
#   penable                      integral      1     'h0                                               
#   pwrite                       integral      1     'h0                                               
#   pwdata                       integral      32    'h1e                                              
#   prdata                       integral      32    'h0                                               
#   pslverr                      integral      1     'h0                                               
#   pready                       integral      1     'h0                                               
#   begin_time                   time          64    18                                                
#   end_time                     time          64    26                                                
#   depth                        int           32    'd2                                               
#   parent sequence (name)       string        9     h_apb_seq                                         
#   parent sequence (full name)  string        50    uvm_test_top.h_env.h_master_agent.h_seqr.h_apb_seq
#   sequencer                    string        40    uvm_test_top.h_env.h_master_agent.h_seqr          
# -----------------------------------------------------------------------------------------------------
# UVM_INFO apb_seq.sv(8) @ 26: reporter@@h_mul_wr_seq [APB_SEQ ] Inside APB_SEQ new
# UVM_INFO apb_seq.sv(49) @ 26: reporter@@h_mul_wr_seq [mul_wr_seq ] Inside mul_wr new
# UVM_INFO apb_seq_item.sv(28) @ 26: reporter@@h_item [APB_SEQ_ITEM] Inside APB_ SEQ_item NEW 
# UVM_INFO apb_seq_item.sv(28) @ 30: reporter@@h_item [APB_SEQ_ITEM] Inside APB_ SEQ_item NEW 
# UVM_INFO slave_monitor.sv(40) @ 30: uvm_test_top.h_env.h_slave_agent.h_slave_mon [slave_MONITOR] Packet in slave_monitor => ------------------------------------
# Name       Type          Size  Value
# ------------------------------------
# h_item     apb_seq_item  -     @1056
#   paddr    integral      32    'h0  
#   psel     integral      1     'h0  
#   penable  integral      1     'h0  
#   pwrite   integral      1     'h0  
#   pwdata   integral      32    'h0  
#   prdata   integral      32    'h0  
#   pslverr  integral      1     'h0  
#   pready   integral      1     'h0  
# ------------------------------------
#  items
# UVM_INFO apb_cov_collector.sv(41) @ 30: uvm_test_top.h_env.h_cov [coverage_collector] the functional coverage is:        79
# UVM_INFO apb_cov_collector.sv(42) @ 30: uvm_test_top.h_env.h_cov [APB_COV_COLLECTOR ] Inside APB_COV_COLLECTOR  RUN PHASE
# UVM_INFO apb_seq.sv(66) @ 30: uvm_test_top.h_env.h_master_agent.h_seqr@@h_mul_wr_seq [apb__seq] Done generation in sequence => --------------------------------------------------------------------------------------------------------
# Name                           Type          Size  Value                                                
# --------------------------------------------------------------------------------------------------------
# h_item                         apb_seq_item  -     @1050                                                
#   paddr                        integral      32    'h1                                                  
#   psel                         integral      1     'h0                                                  
#   penable                      integral      1     'h0                                                  
#   pwrite                       integral      1     'h1                                                  
#   pwdata                       integral      32    'had178dc4                                           
#   prdata                       integral      32    'h0                                                  
#   pslverr                      integral      1     'h0                                                  
#   pready                       integral      1     'h0                                                  
#   begin_time                   time          64    30                                                   
#   depth                        int           32    'd2                                                  
#   parent sequence (name)       string        12    h_mul_wr_seq                                         
#   parent sequence (full name)  string        53    uvm_test_top.h_env.h_master_agent.h_seqr.h_mul_wr_seq
#   sequencer                    string        40    uvm_test_top.h_env.h_master_agent.h_seqr             
# --------------------------------------------------------------------------------------------------------
#  items
# UVM_INFO apb_seq_item.sv(28) @ 34: reporter@@h_item [APB_SEQ_ITEM] Inside APB_ SEQ_item NEW 
# UVM_INFO master_monitor.sv(41) @ 34: uvm_test_top.h_env.h_master_agent.h_master_mon [MASTER_MONITOR] Packet in master_monitor => -----------------------------------------
# Name       Type          Size  Value     
# -----------------------------------------
# h_item     apb_seq_item  -     @1070     
#   paddr    integral      32    'h1       
#   psel     integral      1     'h1       
#   penable  integral      1     'h1       
#   pwrite   integral      1     'h1       
#   pwdata   integral      32    'had178dc4
#   prdata   integral      32    'h0       
#   pslverr  integral      1     'h0       
#   pready   integral      1     'h0       
# -----------------------------------------
#  items
# UVM_INFO apb_cov_collector.sv(41) @ 34: uvm_test_top.h_env.h_cov [coverage_collector] the functional coverage is:        80
# UVM_INFO apb_cov_collector.sv(42) @ 34: uvm_test_top.h_env.h_cov [APB_COV_COLLECTOR ] Inside APB_COV_COLLECTOR  RUN PHASE
# UVM_INFO apb_seq_item.sv(28) @ 38: reporter@@h_item [APB_SEQ_ITEM] Inside APB_ SEQ_item NEW 
# UVM_INFO master_monitor.sv(41) @ 38: uvm_test_top.h_env.h_master_agent.h_master_mon [MASTER_MONITOR] Packet in master_monitor => -----------------------------------------
# Name       Type          Size  Value     
# -----------------------------------------
# h_item     apb_seq_item  -     @1082     
#   paddr    integral      32    'h1       
#   psel     integral      1     'h1       
#   penable  integral      1     'h0       
#   pwrite   integral      1     'h1       
#   pwdata   integral      32    'had178dc4
#   prdata   integral      32    'h0       
#   pslverr  integral      1     'h0       
#   pready   integral      1     'h0       
# -----------------------------------------
#  items
# UVM_INFO apb_cov_collector.sv(41) @ 38: uvm_test_top.h_env.h_cov [coverage_collector] the functional coverage is:        80
# UVM_INFO apb_cov_collector.sv(42) @ 38: uvm_test_top.h_env.h_cov [APB_COV_COLLECTOR ] Inside APB_COV_COLLECTOR  RUN PHASE
# UVM_INFO master_driver.sv(33) @ 38: uvm_test_top.h_env.h_master_agent.h_driv [APB_Driver] Packet in driver => --------------------------------------------------------------------------------------------------------
# Name                           Type          Size  Value                                                
# --------------------------------------------------------------------------------------------------------
# h_item                         apb_seq_item  -     @1050                                                
#   paddr                        integral      32    'h1                                                  
#   psel                         integral      1     'h0                                                  
#   penable                      integral      1     'h0                                                  
#   pwrite                       integral      1     'h1                                                  
#   pwdata                       integral      32    'had178dc4                                           
#   prdata                       integral      32    'h0                                                  
#   pslverr                      integral      1     'h0                                                  
#   pready                       integral      1     'h0                                                  
#   begin_time                   time          64    30                                                   
#   depth                        int           32    'd2                                                  
#   parent sequence (name)       string        12    h_mul_wr_seq                                         
#   parent sequence (full name)  string        53    uvm_test_top.h_env.h_master_agent.h_seqr.h_mul_wr_seq
#   sequencer                    string        40    uvm_test_top.h_env.h_master_agent.h_seqr             
# --------------------------------------------------------------------------------------------------------
#  items
# --------------------------------------------------------------------------------------------------------
# Name                           Type          Size  Value                                                
# --------------------------------------------------------------------------------------------------------
# h_item                         apb_seq_item  -     @1050                                                
#   paddr                        integral      32    'h1                                                  
#   psel                         integral      1     'h0                                                  
#   penable                      integral      1     'h0                                                  
#   pwrite                       integral      1     'h1                                                  
#   pwdata                       integral      32    'had178dc4                                           
#   prdata                       integral      32    'h0                                                  
#   pslverr                      integral      1     'h0                                                  
#   pready                       integral      1     'h0                                                  
#   begin_time                   time          64    30                                                   
#   end_time                     time          64    38                                                   
#   depth                        int           32    'd2                                                  
#   parent sequence (name)       string        12    h_mul_wr_seq                                         
#   parent sequence (full name)  string        53    uvm_test_top.h_env.h_master_agent.h_seqr.h_mul_wr_seq
#   sequencer                    string        40    uvm_test_top.h_env.h_master_agent.h_seqr             
# --------------------------------------------------------------------------------------------------------
# UVM_INFO apb_seq.sv(69) @ 38: uvm_test_top.h_env.h_master_agent.h_seqr@@h_mul_wr_seq [APB_SEQ ] Inside APB_SEQ BODY
# UVM_INFO apb_seq_item.sv(28) @ 42: reporter@@h_item [APB_SEQ_ITEM] Inside APB_ SEQ_item NEW 
# UVM_INFO master_monitor.sv(41) @ 42: uvm_test_top.h_env.h_master_agent.h_master_mon [MASTER_MONITOR] Packet in master_monitor => -----------------------------------------
# Name       Type          Size  Value     
# -----------------------------------------
# h_item     apb_seq_item  -     @1098     
#   paddr    integral      32    'h1       
#   psel     integral      1     'h1       
#   penable  integral      1     'h1       
#   pwrite   integral      1     'h1       
#   pwdata   integral      32    'had178dc4
#   prdata   integral      32    'h0       
#   pslverr  integral      1     'h0       
#   pready   integral      1     'h0       
# -----------------------------------------
#  items
# UVM_INFO apb_cov_collector.sv(41) @ 42: uvm_test_top.h_env.h_cov [coverage_collector] the functional coverage is:        80
# UVM_INFO apb_cov_collector.sv(42) @ 42: uvm_test_top.h_env.h_cov [APB_COV_COLLECTOR ] Inside APB_COV_COLLECTOR  RUN PHASE
# UVM_INFO apb_seq.sv(66) @ 42: uvm_test_top.h_env.h_master_agent.h_seqr@@h_mul_wr_seq [apb__seq] Done generation in sequence => --------------------------------------------------------------------------------------------------------
# Name                           Type          Size  Value                                                
# --------------------------------------------------------------------------------------------------------
# h_item                         apb_seq_item  -     @1050                                                
#   paddr                        integral      32    'h2                                                  
#   psel                         integral      1     'h0                                                  
#   penable                      integral      1     'h0                                                  
#   pwrite                       integral      1     'h1                                                  
#   pwdata                       integral      32    'hebcaad39                                           
#   prdata                       integral      32    'h0                                                  
#   pslverr                      integral      1     'h0                                                  
#   pready                       integral      1     'h0                                                  
#   begin_time                   time          64    42                                                   
#   depth                        int           32    'd2                                                  
#   parent sequence (name)       string        12    h_mul_wr_seq                                         
#   parent sequence (full name)  string        53    uvm_test_top.h_env.h_master_agent.h_seqr.h_mul_wr_seq
#   sequencer                    string        40    uvm_test_top.h_env.h_master_agent.h_seqr             
# --------------------------------------------------------------------------------------------------------
#  items
# UVM_INFO apb_seq_item.sv(28) @ 46: reporter@@h_item [APB_SEQ_ITEM] Inside APB_ SEQ_item NEW 
# UVM_INFO master_monitor.sv(41) @ 46: uvm_test_top.h_env.h_master_agent.h_master_mon [MASTER_MONITOR] Packet in master_monitor => -----------------------------------------
# Name       Type          Size  Value     
# -----------------------------------------
# h_item     apb_seq_item  -     @1112     
#   paddr    integral      32    'h2       
#   psel     integral      1     'h1       
#   penable  integral      1     'h1       
#   pwrite   integral      1     'h1       
#   pwdata   integral      32    'hebcaad39
#   prdata   integral      32    'h0       
#   pslverr  integral      1     'h0       
#   pready   integral      1     'h0       
# -----------------------------------------
#  items
# UVM_INFO apb_cov_collector.sv(41) @ 46: uvm_test_top.h_env.h_cov [coverage_collector] the functional coverage is:        82
# UVM_INFO apb_cov_collector.sv(42) @ 46: uvm_test_top.h_env.h_cov [APB_COV_COLLECTOR ] Inside APB_COV_COLLECTOR  RUN PHASE
# UVM_INFO apb_seq_item.sv(28) @ 50: reporter@@h_item [APB_SEQ_ITEM] Inside APB_ SEQ_item NEW 
# UVM_INFO master_monitor.sv(41) @ 50: uvm_test_top.h_env.h_master_agent.h_master_mon [MASTER_MONITOR] Packet in master_monitor => -----------------------------------------
# Name       Type          Size  Value     
# -----------------------------------------
# h_item     apb_seq_item  -     @1124     
#   paddr    integral      32    'h2       
#   psel     integral      1     'h1       
#   penable  integral      1     'h0       
#   pwrite   integral      1     'h1       
#   pwdata   integral      32    'hebcaad39
#   prdata   integral      32    'h0       
#   pslverr  integral      1     'h0       
#   pready   integral      1     'h0       
# -----------------------------------------
#  items
# UVM_INFO apb_cov_collector.sv(41) @ 50: uvm_test_top.h_env.h_cov [coverage_collector] the functional coverage is:        82
# UVM_INFO apb_cov_collector.sv(42) @ 50: uvm_test_top.h_env.h_cov [APB_COV_COLLECTOR ] Inside APB_COV_COLLECTOR  RUN PHASE
# UVM_INFO master_driver.sv(33) @ 50: uvm_test_top.h_env.h_master_agent.h_driv [APB_Driver] Packet in driver => --------------------------------------------------------------------------------------------------------
# Name                           Type          Size  Value                                                
# --------------------------------------------------------------------------------------------------------
# h_item                         apb_seq_item  -     @1050                                                
#   paddr                        integral      32    'h2                                                  
#   psel                         integral      1     'h0                                                  
#   penable                      integral      1     'h0                                                  
#   pwrite                       integral      1     'h1                                                  
#   pwdata                       integral      32    'hebcaad39                                           
#   prdata                       integral      32    'h0                                                  
#   pslverr                      integral      1     'h0                                                  
#   pready                       integral      1     'h0                                                  
#   begin_time                   time          64    42                                                   
#   depth                        int           32    'd2                                                  
#   parent sequence (name)       string        12    h_mul_wr_seq                                         
#   parent sequence (full name)  string        53    uvm_test_top.h_env.h_master_agent.h_seqr.h_mul_wr_seq
#   sequencer                    string        40    uvm_test_top.h_env.h_master_agent.h_seqr             
# --------------------------------------------------------------------------------------------------------
#  items
# --------------------------------------------------------------------------------------------------------
# Name                           Type          Size  Value                                                
# --------------------------------------------------------------------------------------------------------
# h_item                         apb_seq_item  -     @1050                                                
#   paddr                        integral      32    'h2                                                  
#   psel                         integral      1     'h0                                                  
#   penable                      integral      1     'h0                                                  
#   pwrite                       integral      1     'h1                                                  
#   pwdata                       integral      32    'hebcaad39                                           
#   prdata                       integral      32    'h0                                                  
#   pslverr                      integral      1     'h0                                                  
#   pready                       integral      1     'h0                                                  
#   begin_time                   time          64    42                                                   
#   end_time                     time          64    50                                                   
#   depth                        int           32    'd2                                                  
#   parent sequence (name)       string        12    h_mul_wr_seq                                         
#   parent sequence (full name)  string        53    uvm_test_top.h_env.h_master_agent.h_seqr.h_mul_wr_seq
#   sequencer                    string        40    uvm_test_top.h_env.h_master_agent.h_seqr             
# --------------------------------------------------------------------------------------------------------
# UVM_INFO apb_seq.sv(69) @ 50: uvm_test_top.h_env.h_master_agent.h_seqr@@h_mul_wr_seq [APB_SEQ ] Inside APB_SEQ BODY
# UVM_INFO apb_seq_item.sv(28) @ 54: reporter@@h_item [APB_SEQ_ITEM] Inside APB_ SEQ_item NEW 
# UVM_INFO master_monitor.sv(41) @ 54: uvm_test_top.h_env.h_master_agent.h_master_mon [MASTER_MONITOR] Packet in master_monitor => -----------------------------------------
# Name       Type          Size  Value     
# -----------------------------------------
# h_item     apb_seq_item  -     @1140     
#   paddr    integral      32    'h2       
#   psel     integral      1     'h1       
#   penable  integral      1     'h1       
#   pwrite   integral      1     'h1       
#   pwdata   integral      32    'hebcaad39
#   prdata   integral      32    'h0       
#   pslverr  integral      1     'h0       
#   pready   integral      1     'h0       
# -----------------------------------------
#  items
# UVM_INFO apb_cov_collector.sv(41) @ 54: uvm_test_top.h_env.h_cov [coverage_collector] the functional coverage is:        82
# UVM_INFO apb_cov_collector.sv(42) @ 54: uvm_test_top.h_env.h_cov [APB_COV_COLLECTOR ] Inside APB_COV_COLLECTOR  RUN PHASE
# UVM_INFO apb_seq.sv(66) @ 54: uvm_test_top.h_env.h_master_agent.h_seqr@@h_mul_wr_seq [apb__seq] Done generation in sequence => --------------------------------------------------------------------------------------------------------
# Name                           Type          Size  Value                                                
# --------------------------------------------------------------------------------------------------------
# h_item                         apb_seq_item  -     @1050                                                
#   paddr                        integral      32    'h3                                                  
#   psel                         integral      1     'h0                                                  
#   penable                      integral      1     'h0                                                  
#   pwrite                       integral      1     'h1                                                  
#   pwdata                       integral      32    'h27a47d3a                                           
#   prdata                       integral      32    'h0                                                  
#   pslverr                      integral      1     'h0                                                  
#   pready                       integral      1     'h0                                                  
#   begin_time                   time          64    54                                                   
#   depth                        int           32    'd2                                                  
#   parent sequence (name)       string        12    h_mul_wr_seq                                         
#   parent sequence (full name)  string        53    uvm_test_top.h_env.h_master_agent.h_seqr.h_mul_wr_seq
#   sequencer                    string        40    uvm_test_top.h_env.h_master_agent.h_seqr             
# --------------------------------------------------------------------------------------------------------
#  items
# UVM_INFO apb_seq_item.sv(28) @ 58: reporter@@h_item [APB_SEQ_ITEM] Inside APB_ SEQ_item NEW 
# UVM_INFO master_monitor.sv(41) @ 58: uvm_test_top.h_env.h_master_agent.h_master_mon [MASTER_MONITOR] Packet in master_monitor => -----------------------------------------
# Name       Type          Size  Value     
# -----------------------------------------
# h_item     apb_seq_item  -     @1154     
#   paddr    integral      32    'h3       
#   psel     integral      1     'h1       
#   penable  integral      1     'h1       
#   pwrite   integral      1     'h1       
#   pwdata   integral      32    'h27a47d3a
#   prdata   integral      32    'h0       
#   pslverr  integral      1     'h0       
#   pready   integral      1     'h0       
# -----------------------------------------
#  items
# UVM_INFO apb_cov_collector.sv(41) @ 58: uvm_test_top.h_env.h_cov [coverage_collector] the functional coverage is:        84
# UVM_INFO apb_cov_collector.sv(42) @ 58: uvm_test_top.h_env.h_cov [APB_COV_COLLECTOR ] Inside APB_COV_COLLECTOR  RUN PHASE
# UVM_INFO apb_seq_item.sv(28) @ 62: reporter@@h_item [APB_SEQ_ITEM] Inside APB_ SEQ_item NEW 
# UVM_INFO master_monitor.sv(41) @ 62: uvm_test_top.h_env.h_master_agent.h_master_mon [MASTER_MONITOR] Packet in master_monitor => -----------------------------------------
# Name       Type          Size  Value     
# -----------------------------------------
# h_item     apb_seq_item  -     @1166     
#   paddr    integral      32    'h3       
#   psel     integral      1     'h1       
#   penable  integral      1     'h0       
#   pwrite   integral      1     'h1       
#   pwdata   integral      32    'h27a47d3a
#   prdata   integral      32    'h0       
#   pslverr  integral      1     'h0       
#   pready   integral      1     'h0       
# -----------------------------------------
#  items
# UVM_INFO apb_cov_collector.sv(41) @ 62: uvm_test_top.h_env.h_cov [coverage_collector] the functional coverage is:        84
# UVM_INFO apb_cov_collector.sv(42) @ 62: uvm_test_top.h_env.h_cov [APB_COV_COLLECTOR ] Inside APB_COV_COLLECTOR  RUN PHASE
# UVM_INFO master_driver.sv(33) @ 62: uvm_test_top.h_env.h_master_agent.h_driv [APB_Driver] Packet in driver => --------------------------------------------------------------------------------------------------------
# Name                           Type          Size  Value                                                
# --------------------------------------------------------------------------------------------------------
# h_item                         apb_seq_item  -     @1050                                                
#   paddr                        integral      32    'h3                                                  
#   psel                         integral      1     'h0                                                  
#   penable                      integral      1     'h0                                                  
#   pwrite                       integral      1     'h1                                                  
#   pwdata                       integral      32    'h27a47d3a                                           
#   prdata                       integral      32    'h0                                                  
#   pslverr                      integral      1     'h0                                                  
#   pready                       integral      1     'h0                                                  
#   begin_time                   time          64    54                                                   
#   depth                        int           32    'd2                                                  
#   parent sequence (name)       string        12    h_mul_wr_seq                                         
#   parent sequence (full name)  string        53    uvm_test_top.h_env.h_master_agent.h_seqr.h_mul_wr_seq
#   sequencer                    string        40    uvm_test_top.h_env.h_master_agent.h_seqr             
# --------------------------------------------------------------------------------------------------------
#  items
# --------------------------------------------------------------------------------------------------------
# Name                           Type          Size  Value                                                
# --------------------------------------------------------------------------------------------------------
# h_item                         apb_seq_item  -     @1050                                                
#   paddr                        integral      32    'h3                                                  
#   psel                         integral      1     'h0                                                  
#   penable                      integral      1     'h0                                                  
#   pwrite                       integral      1     'h1                                                  
#   pwdata                       integral      32    'h27a47d3a                                           
#   prdata                       integral      32    'h0                                                  
#   pslverr                      integral      1     'h0                                                  
#   pready                       integral      1     'h0                                                  
#   begin_time                   time          64    54                                                   
#   end_time                     time          64    62                                                   
#   depth                        int           32    'd2                                                  
#   parent sequence (name)       string        12    h_mul_wr_seq                                         
#   parent sequence (full name)  string        53    uvm_test_top.h_env.h_master_agent.h_seqr.h_mul_wr_seq
#   sequencer                    string        40    uvm_test_top.h_env.h_master_agent.h_seqr             
# --------------------------------------------------------------------------------------------------------
# UVM_INFO apb_seq.sv(69) @ 62: uvm_test_top.h_env.h_master_agent.h_seqr@@h_mul_wr_seq [APB_SEQ ] Inside APB_SEQ BODY
# UVM_INFO apb_seq_item.sv(28) @ 66: reporter@@h_item [APB_SEQ_ITEM] Inside APB_ SEQ_item NEW 
# UVM_INFO master_monitor.sv(41) @ 66: uvm_test_top.h_env.h_master_agent.h_master_mon [MASTER_MONITOR] Packet in master_monitor => -----------------------------------------
# Name       Type          Size  Value     
# -----------------------------------------
# h_item     apb_seq_item  -     @1182     
#   paddr    integral      32    'h3       
#   psel     integral      1     'h1       
#   penable  integral      1     'h1       
#   pwrite   integral      1     'h1       
#   pwdata   integral      32    'h27a47d3a
#   prdata   integral      32    'h0       
#   pslverr  integral      1     'h0       
#   pready   integral      1     'h0       
# -----------------------------------------
#  items
# UVM_INFO apb_cov_collector.sv(41) @ 66: uvm_test_top.h_env.h_cov [coverage_collector] the functional coverage is:        84
# UVM_INFO apb_cov_collector.sv(42) @ 66: uvm_test_top.h_env.h_cov [APB_COV_COLLECTOR ] Inside APB_COV_COLLECTOR  RUN PHASE
# UVM_INFO apb_seq.sv(66) @ 66: uvm_test_top.h_env.h_master_agent.h_seqr@@h_mul_wr_seq [apb__seq] Done generation in sequence => --------------------------------------------------------------------------------------------------------
# Name                           Type          Size  Value                                                
# --------------------------------------------------------------------------------------------------------
# h_item                         apb_seq_item  -     @1050                                                
#   paddr                        integral      32    'h4                                                  
#   psel                         integral      1     'h0                                                  
#   penable                      integral      1     'h0                                                  
#   pwrite                       integral      1     'h1                                                  
#   pwdata                       integral      32    'h49964a7d                                           
#   prdata                       integral      32    'h0                                                  
#   pslverr                      integral      1     'h0                                                  
#   pready                       integral      1     'h0                                                  
#   begin_time                   time          64    66                                                   
#   depth                        int           32    'd2                                                  
#   parent sequence (name)       string        12    h_mul_wr_seq                                         
#   parent sequence (full name)  string        53    uvm_test_top.h_env.h_master_agent.h_seqr.h_mul_wr_seq
#   sequencer                    string        40    uvm_test_top.h_env.h_master_agent.h_seqr             
# --------------------------------------------------------------------------------------------------------
#  items
# UVM_INFO apb_seq_item.sv(28) @ 70: reporter@@h_item [APB_SEQ_ITEM] Inside APB_ SEQ_item NEW 
# UVM_INFO master_monitor.sv(41) @ 70: uvm_test_top.h_env.h_master_agent.h_master_mon [MASTER_MONITOR] Packet in master_monitor => -----------------------------------------
# Name       Type          Size  Value     
# -----------------------------------------
# h_item     apb_seq_item  -     @1196     
#   paddr    integral      32    'h4       
#   psel     integral      1     'h1       
#   penable  integral      1     'h1       
#   pwrite   integral      1     'h1       
#   pwdata   integral      32    'h49964a7d
#   prdata   integral      32    'h0       
#   pslverr  integral      1     'h0       
#   pready   integral      1     'h0       
# -----------------------------------------
#  items
# UVM_INFO apb_cov_collector.sv(41) @ 70: uvm_test_top.h_env.h_cov [coverage_collector] the functional coverage is:        86
# UVM_INFO apb_cov_collector.sv(42) @ 70: uvm_test_top.h_env.h_cov [APB_COV_COLLECTOR ] Inside APB_COV_COLLECTOR  RUN PHASE
# UVM_INFO apb_seq_item.sv(28) @ 74: reporter@@h_item [APB_SEQ_ITEM] Inside APB_ SEQ_item NEW 
# UVM_INFO master_monitor.sv(41) @ 74: uvm_test_top.h_env.h_master_agent.h_master_mon [MASTER_MONITOR] Packet in master_monitor => -----------------------------------------
# Name       Type          Size  Value     
# -----------------------------------------
# h_item     apb_seq_item  -     @1208     
#   paddr    integral      32    'h4       
#   psel     integral      1     'h1       
#   penable  integral      1     'h0       
#   pwrite   integral      1     'h1       
#   pwdata   integral      32    'h49964a7d
#   prdata   integral      32    'h0       
#   pslverr  integral      1     'h0       
#   pready   integral      1     'h0       
# -----------------------------------------
#  items
# UVM_INFO apb_cov_collector.sv(41) @ 74: uvm_test_top.h_env.h_cov [coverage_collector] the functional coverage is:        86
# UVM_INFO apb_cov_collector.sv(42) @ 74: uvm_test_top.h_env.h_cov [APB_COV_COLLECTOR ] Inside APB_COV_COLLECTOR  RUN PHASE
# UVM_INFO master_driver.sv(33) @ 74: uvm_test_top.h_env.h_master_agent.h_driv [APB_Driver] Packet in driver => --------------------------------------------------------------------------------------------------------
# Name                           Type          Size  Value                                                
# --------------------------------------------------------------------------------------------------------
# h_item                         apb_seq_item  -     @1050                                                
#   paddr                        integral      32    'h4                                                  
#   psel                         integral      1     'h0                                                  
#   penable                      integral      1     'h0                                                  
#   pwrite                       integral      1     'h1                                                  
#   pwdata                       integral      32    'h49964a7d                                           
#   prdata                       integral      32    'h0                                                  
#   pslverr                      integral      1     'h0                                                  
#   pready                       integral      1     'h0                                                  
#   begin_time                   time          64    66                                                   
#   depth                        int           32    'd2                                                  
#   parent sequence (name)       string        12    h_mul_wr_seq                                         
#   parent sequence (full name)  string        53    uvm_test_top.h_env.h_master_agent.h_seqr.h_mul_wr_seq
#   sequencer                    string        40    uvm_test_top.h_env.h_master_agent.h_seqr             
# --------------------------------------------------------------------------------------------------------
#  items
# --------------------------------------------------------------------------------------------------------
# Name                           Type          Size  Value                                                
# --------------------------------------------------------------------------------------------------------
# h_item                         apb_seq_item  -     @1050                                                
#   paddr                        integral      32    'h4                                                  
#   psel                         integral      1     'h0                                                  
#   penable                      integral      1     'h0                                                  
#   pwrite                       integral      1     'h1                                                  
#   pwdata                       integral      32    'h49964a7d                                           
#   prdata                       integral      32    'h0                                                  
#   pslverr                      integral      1     'h0                                                  
#   pready                       integral      1     'h0                                                  
#   begin_time                   time          64    66                                                   
#   end_time                     time          64    74                                                   
#   depth                        int           32    'd2                                                  
#   parent sequence (name)       string        12    h_mul_wr_seq                                         
#   parent sequence (full name)  string        53    uvm_test_top.h_env.h_master_agent.h_seqr.h_mul_wr_seq
#   sequencer                    string        40    uvm_test_top.h_env.h_master_agent.h_seqr             
# --------------------------------------------------------------------------------------------------------
# UVM_INFO apb_seq.sv(69) @ 74: uvm_test_top.h_env.h_master_agent.h_seqr@@h_mul_wr_seq [APB_SEQ ] Inside APB_SEQ BODY
# UVM_INFO apb_seq_item.sv(28) @ 78: reporter@@h_item [APB_SEQ_ITEM] Inside APB_ SEQ_item NEW 
# UVM_INFO master_monitor.sv(41) @ 78: uvm_test_top.h_env.h_master_agent.h_master_mon [MASTER_MONITOR] Packet in master_monitor => -----------------------------------------
# Name       Type          Size  Value     
# -----------------------------------------
# h_item     apb_seq_item  -     @1224     
#   paddr    integral      32    'h4       
#   psel     integral      1     'h1       
#   penable  integral      1     'h1       
#   pwrite   integral      1     'h1       
#   pwdata   integral      32    'h49964a7d
#   prdata   integral      32    'h0       
#   pslverr  integral      1     'h0       
#   pready   integral      1     'h0       
# -----------------------------------------
#  items
# UVM_INFO apb_cov_collector.sv(41) @ 78: uvm_test_top.h_env.h_cov [coverage_collector] the functional coverage is:        86
# UVM_INFO apb_cov_collector.sv(42) @ 78: uvm_test_top.h_env.h_cov [APB_COV_COLLECTOR ] Inside APB_COV_COLLECTOR  RUN PHASE
# UVM_INFO apb_seq.sv(66) @ 78: uvm_test_top.h_env.h_master_agent.h_seqr@@h_mul_wr_seq [apb__seq] Done generation in sequence => --------------------------------------------------------------------------------------------------------
# Name                           Type          Size  Value                                                
# --------------------------------------------------------------------------------------------------------
# h_item                         apb_seq_item  -     @1050                                                
#   paddr                        integral      32    'h5                                                  
#   psel                         integral      1     'h0                                                  
#   penable                      integral      1     'h0                                                  
#   pwrite                       integral      1     'h1                                                  
#   pwdata                       integral      32    'haf13baff                                           
#   prdata                       integral      32    'h0                                                  
#   pslverr                      integral      1     'h0                                                  
#   pready                       integral      1     'h0                                                  
#   begin_time                   time          64    78                                                   
#   depth                        int           32    'd2                                                  
#   parent sequence (name)       string        12    h_mul_wr_seq                                         
#   parent sequence (full name)  string        53    uvm_test_top.h_env.h_master_agent.h_seqr.h_mul_wr_seq
#   sequencer                    string        40    uvm_test_top.h_env.h_master_agent.h_seqr             
# --------------------------------------------------------------------------------------------------------
#  items
# UVM_INFO apb_seq_item.sv(28) @ 82: reporter@@h_item [APB_SEQ_ITEM] Inside APB_ SEQ_item NEW 
# UVM_INFO master_monitor.sv(41) @ 82: uvm_test_top.h_env.h_master_agent.h_master_mon [MASTER_MONITOR] Packet in master_monitor => -----------------------------------------
# Name       Type          Size  Value     
# -----------------------------------------
# h_item     apb_seq_item  -     @1238     
#   paddr    integral      32    'h5       
#   psel     integral      1     'h1       
#   penable  integral      1     'h1       
#   pwrite   integral      1     'h1       
#   pwdata   integral      32    'haf13baff
#   prdata   integral      32    'h0       
#   pslverr  integral      1     'h0       
#   pready   integral      1     'h0       
# -----------------------------------------
#  items
# UVM_INFO apb_cov_collector.sv(41) @ 82: uvm_test_top.h_env.h_cov [coverage_collector] the functional coverage is:        86
# UVM_INFO apb_cov_collector.sv(42) @ 82: uvm_test_top.h_env.h_cov [APB_COV_COLLECTOR ] Inside APB_COV_COLLECTOR  RUN PHASE
# UVM_INFO apb_seq_item.sv(28) @ 86: reporter@@h_item [APB_SEQ_ITEM] Inside APB_ SEQ_item NEW 
# UVM_INFO master_monitor.sv(41) @ 86: uvm_test_top.h_env.h_master_agent.h_master_mon [MASTER_MONITOR] Packet in master_monitor => -----------------------------------------
# Name       Type          Size  Value     
# -----------------------------------------
# h_item     apb_seq_item  -     @1250     
#   paddr    integral      32    'h5       
#   psel     integral      1     'h1       
#   penable  integral      1     'h0       
#   pwrite   integral      1     'h1       
#   pwdata   integral      32    'haf13baff
#   prdata   integral      32    'h0       
#   pslverr  integral      1     'h0       
#   pready   integral      1     'h0       
# -----------------------------------------
#  items
# UVM_INFO apb_cov_collector.sv(41) @ 86: uvm_test_top.h_env.h_cov [coverage_collector] the functional coverage is:        86
# UVM_INFO apb_cov_collector.sv(42) @ 86: uvm_test_top.h_env.h_cov [APB_COV_COLLECTOR ] Inside APB_COV_COLLECTOR  RUN PHASE
# UVM_INFO master_driver.sv(33) @ 86: uvm_test_top.h_env.h_master_agent.h_driv [APB_Driver] Packet in driver => --------------------------------------------------------------------------------------------------------
# Name                           Type          Size  Value                                                
# --------------------------------------------------------------------------------------------------------
# h_item                         apb_seq_item  -     @1050                                                
#   paddr                        integral      32    'h5                                                  
#   psel                         integral      1     'h0                                                  
#   penable                      integral      1     'h0                                                  
#   pwrite                       integral      1     'h1                                                  
#   pwdata                       integral      32    'haf13baff                                           
#   prdata                       integral      32    'h0                                                  
#   pslverr                      integral      1     'h0                                                  
#   pready                       integral      1     'h0                                                  
#   begin_time                   time          64    78                                                   
#   depth                        int           32    'd2                                                  
#   parent sequence (name)       string        12    h_mul_wr_seq                                         
#   parent sequence (full name)  string        53    uvm_test_top.h_env.h_master_agent.h_seqr.h_mul_wr_seq
#   sequencer                    string        40    uvm_test_top.h_env.h_master_agent.h_seqr             
# --------------------------------------------------------------------------------------------------------
#  items
# --------------------------------------------------------------------------------------------------------
# Name                           Type          Size  Value                                                
# --------------------------------------------------------------------------------------------------------
# h_item                         apb_seq_item  -     @1050                                                
#   paddr                        integral      32    'h5                                                  
#   psel                         integral      1     'h0                                                  
#   penable                      integral      1     'h0                                                  
#   pwrite                       integral      1     'h1                                                  
#   pwdata                       integral      32    'haf13baff                                           
#   prdata                       integral      32    'h0                                                  
#   pslverr                      integral      1     'h0                                                  
#   pready                       integral      1     'h0                                                  
#   begin_time                   time          64    78                                                   
#   end_time                     time          64    86                                                   
#   depth                        int           32    'd2                                                  
#   parent sequence (name)       string        12    h_mul_wr_seq                                         
#   parent sequence (full name)  string        53    uvm_test_top.h_env.h_master_agent.h_seqr.h_mul_wr_seq
#   sequencer                    string        40    uvm_test_top.h_env.h_master_agent.h_seqr             
# --------------------------------------------------------------------------------------------------------
# UVM_INFO apb_seq.sv(69) @ 86: uvm_test_top.h_env.h_master_agent.h_seqr@@h_mul_wr_seq [APB_SEQ ] Inside APB_SEQ BODY
# UVM_INFO apb_seq_item.sv(28) @ 90: reporter@@h_item [APB_SEQ_ITEM] Inside APB_ SEQ_item NEW 
# UVM_INFO master_monitor.sv(41) @ 90: uvm_test_top.h_env.h_master_agent.h_master_mon [MASTER_MONITOR] Packet in master_monitor => -----------------------------------------
# Name       Type          Size  Value     
# -----------------------------------------
# h_item     apb_seq_item  -     @1266     
#   paddr    integral      32    'h5       
#   psel     integral      1     'h1       
#   penable  integral      1     'h1       
#   pwrite   integral      1     'h1       
#   pwdata   integral      32    'haf13baff
#   prdata   integral      32    'h0       
#   pslverr  integral      1     'h0       
#   pready   integral      1     'h0       
# -----------------------------------------
#  items
# UVM_INFO apb_cov_collector.sv(41) @ 90: uvm_test_top.h_env.h_cov [coverage_collector] the functional coverage is:        86
# UVM_INFO apb_cov_collector.sv(42) @ 90: uvm_test_top.h_env.h_cov [APB_COV_COLLECTOR ] Inside APB_COV_COLLECTOR  RUN PHASE
# UVM_INFO apb_seq.sv(66) @ 90: uvm_test_top.h_env.h_master_agent.h_seqr@@h_mul_wr_seq [apb__seq] Done generation in sequence => --------------------------------------------------------------------------------------------------------
# Name                           Type          Size  Value                                                
# --------------------------------------------------------------------------------------------------------
# h_item                         apb_seq_item  -     @1050                                                
#   paddr                        integral      32    'h6                                                  
#   psel                         integral      1     'h0                                                  
#   penable                      integral      1     'h0                                                  
#   pwrite                       integral      1     'h1                                                  
#   pwdata                       integral      32    'h18b68533                                           
#   prdata                       integral      32    'h0                                                  
#   pslverr                      integral      1     'h0                                                  
#   pready                       integral      1     'h0                                                  
#   begin_time                   time          64    90                                                   
#   depth                        int           32    'd2                                                  
#   parent sequence (name)       string        12    h_mul_wr_seq                                         
#   parent sequence (full name)  string        53    uvm_test_top.h_env.h_master_agent.h_seqr.h_mul_wr_seq
#   sequencer                    string        40    uvm_test_top.h_env.h_master_agent.h_seqr             
# --------------------------------------------------------------------------------------------------------
#  items
# UVM_INFO apb_seq_item.sv(28) @ 94: reporter@@h_item [APB_SEQ_ITEM] Inside APB_ SEQ_item NEW 
# UVM_INFO master_monitor.sv(41) @ 94: uvm_test_top.h_env.h_master_agent.h_master_mon [MASTER_MONITOR] Packet in master_monitor => -----------------------------------------
# Name       Type          Size  Value     
# -----------------------------------------
# h_item     apb_seq_item  -     @1280     
#   paddr    integral      32    'h6       
#   psel     integral      1     'h1       
#   penable  integral      1     'h1       
#   pwrite   integral      1     'h1       
#   pwdata   integral      32    'h18b68533
#   prdata   integral      32    'h0       
#   pslverr  integral      1     'h0       
#   pready   integral      1     'h0       
# -----------------------------------------
#  items
# UVM_INFO apb_cov_collector.sv(41) @ 94: uvm_test_top.h_env.h_cov [coverage_collector] the functional coverage is:        86
# UVM_INFO apb_cov_collector.sv(42) @ 94: uvm_test_top.h_env.h_cov [APB_COV_COLLECTOR ] Inside APB_COV_COLLECTOR  RUN PHASE
# UVM_INFO apb_seq_item.sv(28) @ 98: reporter@@h_item [APB_SEQ_ITEM] Inside APB_ SEQ_item NEW 
# UVM_INFO master_monitor.sv(41) @ 98: uvm_test_top.h_env.h_master_agent.h_master_mon [MASTER_MONITOR] Packet in master_monitor => -----------------------------------------
# Name       Type          Size  Value     
# -----------------------------------------
# h_item     apb_seq_item  -     @1292     
#   paddr    integral      32    'h6       
#   psel     integral      1     'h1       
#   penable  integral      1     'h0       
#   pwrite   integral      1     'h1       
#   pwdata   integral      32    'h18b68533
#   prdata   integral      32    'h0       
#   pslverr  integral      1     'h0       
#   pready   integral      1     'h0       
# -----------------------------------------
#  items
# UVM_INFO apb_cov_collector.sv(41) @ 98: uvm_test_top.h_env.h_cov [coverage_collector] the functional coverage is:        86
# UVM_INFO apb_cov_collector.sv(42) @ 98: uvm_test_top.h_env.h_cov [APB_COV_COLLECTOR ] Inside APB_COV_COLLECTOR  RUN PHASE
# UVM_INFO master_driver.sv(33) @ 98: uvm_test_top.h_env.h_master_agent.h_driv [APB_Driver] Packet in driver => --------------------------------------------------------------------------------------------------------
# Name                           Type          Size  Value                                                
# --------------------------------------------------------------------------------------------------------
# h_item                         apb_seq_item  -     @1050                                                
#   paddr                        integral      32    'h6                                                  
#   psel                         integral      1     'h0                                                  
#   penable                      integral      1     'h0                                                  
#   pwrite                       integral      1     'h1                                                  
#   pwdata                       integral      32    'h18b68533                                           
#   prdata                       integral      32    'h0                                                  
#   pslverr                      integral      1     'h0                                                  
#   pready                       integral      1     'h0                                                  
#   begin_time                   time          64    90                                                   
#   depth                        int           32    'd2                                                  
#   parent sequence (name)       string        12    h_mul_wr_seq                                         
#   parent sequence (full name)  string        53    uvm_test_top.h_env.h_master_agent.h_seqr.h_mul_wr_seq
#   sequencer                    string        40    uvm_test_top.h_env.h_master_agent.h_seqr             
# --------------------------------------------------------------------------------------------------------
#  items
# --------------------------------------------------------------------------------------------------------
# Name                           Type          Size  Value                                                
# --------------------------------------------------------------------------------------------------------
# h_item                         apb_seq_item  -     @1050                                                
#   paddr                        integral      32    'h6                                                  
#   psel                         integral      1     'h0                                                  
#   penable                      integral      1     'h0                                                  
#   pwrite                       integral      1     'h1                                                  
#   pwdata                       integral      32    'h18b68533                                           
#   prdata                       integral      32    'h0                                                  
#   pslverr                      integral      1     'h0                                                  
#   pready                       integral      1     'h0                                                  
#   begin_time                   time          64    90                                                   
#   end_time                     time          64    98                                                   
#   depth                        int           32    'd2                                                  
#   parent sequence (name)       string        12    h_mul_wr_seq                                         
#   parent sequence (full name)  string        53    uvm_test_top.h_env.h_master_agent.h_seqr.h_mul_wr_seq
#   sequencer                    string        40    uvm_test_top.h_env.h_master_agent.h_seqr             
# --------------------------------------------------------------------------------------------------------
# UVM_INFO apb_seq.sv(69) @ 98: uvm_test_top.h_env.h_master_agent.h_seqr@@h_mul_wr_seq [APB_SEQ ] Inside APB_SEQ BODY
# UVM_INFO apb_seq_item.sv(28) @ 102: reporter@@h_item [APB_SEQ_ITEM] Inside APB_ SEQ_item NEW 
# UVM_INFO master_monitor.sv(41) @ 102: uvm_test_top.h_env.h_master_agent.h_master_mon [MASTER_MONITOR] Packet in master_monitor => -----------------------------------------
# Name       Type          Size  Value     
# -----------------------------------------
# h_item     apb_seq_item  -     @1308     
#   paddr    integral      32    'h6       
#   psel     integral      1     'h1       
#   penable  integral      1     'h1       
#   pwrite   integral      1     'h1       
#   pwdata   integral      32    'h18b68533
#   prdata   integral      32    'h0       
#   pslverr  integral      1     'h0       
#   pready   integral      1     'h0       
# -----------------------------------------
#  items
# UVM_INFO apb_cov_collector.sv(41) @ 102: uvm_test_top.h_env.h_cov [coverage_collector] the functional coverage is:        86
# UVM_INFO apb_cov_collector.sv(42) @ 102: uvm_test_top.h_env.h_cov [APB_COV_COLLECTOR ] Inside APB_COV_COLLECTOR  RUN PHASE
# UVM_INFO apb_seq.sv(66) @ 102: uvm_test_top.h_env.h_master_agent.h_seqr@@h_mul_wr_seq [apb__seq] Done generation in sequence => --------------------------------------------------------------------------------------------------------
# Name                           Type          Size  Value                                                
# --------------------------------------------------------------------------------------------------------
# h_item                         apb_seq_item  -     @1050                                                
#   paddr                        integral      32    'h7                                                  
#   psel                         integral      1     'h0                                                  
#   penable                      integral      1     'h0                                                  
#   pwrite                       integral      1     'h1                                                  
#   pwdata                       integral      32    'hb3365fcf                                           
#   prdata                       integral      32    'h0                                                  
#   pslverr                      integral      1     'h0                                                  
#   pready                       integral      1     'h0                                                  
#   begin_time                   time          64    102                                                  
#   depth                        int           32    'd2                                                  
#   parent sequence (name)       string        12    h_mul_wr_seq                                         
#   parent sequence (full name)  string        53    uvm_test_top.h_env.h_master_agent.h_seqr.h_mul_wr_seq
#   sequencer                    string        40    uvm_test_top.h_env.h_master_agent.h_seqr             
# --------------------------------------------------------------------------------------------------------
#  items
# UVM_INFO apb_seq_item.sv(28) @ 106: reporter@@h_item [APB_SEQ_ITEM] Inside APB_ SEQ_item NEW 
# UVM_INFO master_monitor.sv(41) @ 106: uvm_test_top.h_env.h_master_agent.h_master_mon [MASTER_MONITOR] Packet in master_monitor => -----------------------------------------
# Name       Type          Size  Value     
# -----------------------------------------
# h_item     apb_seq_item  -     @1322     
#   paddr    integral      32    'h7       
#   psel     integral      1     'h1       
#   penable  integral      1     'h1       
#   pwrite   integral      1     'h1       
#   pwdata   integral      32    'hb3365fcf
#   prdata   integral      32    'h0       
#   pslverr  integral      1     'h0       
#   pready   integral      1     'h0       
# -----------------------------------------
#  items
# UVM_INFO apb_cov_collector.sv(41) @ 106: uvm_test_top.h_env.h_cov [coverage_collector] the functional coverage is:        86
# UVM_INFO apb_cov_collector.sv(42) @ 106: uvm_test_top.h_env.h_cov [APB_COV_COLLECTOR ] Inside APB_COV_COLLECTOR  RUN PHASE
# UVM_INFO apb_seq_item.sv(28) @ 110: reporter@@h_item [APB_SEQ_ITEM] Inside APB_ SEQ_item NEW 
# UVM_INFO master_monitor.sv(41) @ 110: uvm_test_top.h_env.h_master_agent.h_master_mon [MASTER_MONITOR] Packet in master_monitor => -----------------------------------------
# Name       Type          Size  Value     
# -----------------------------------------
# h_item     apb_seq_item  -     @1334     
#   paddr    integral      32    'h7       
#   psel     integral      1     'h1       
#   penable  integral      1     'h0       
#   pwrite   integral      1     'h1       
#   pwdata   integral      32    'hb3365fcf
#   prdata   integral      32    'h0       
#   pslverr  integral      1     'h0       
#   pready   integral      1     'h0       
# -----------------------------------------
#  items
# UVM_INFO apb_cov_collector.sv(41) @ 110: uvm_test_top.h_env.h_cov [coverage_collector] the functional coverage is:        86
# UVM_INFO apb_cov_collector.sv(42) @ 110: uvm_test_top.h_env.h_cov [APB_COV_COLLECTOR ] Inside APB_COV_COLLECTOR  RUN PHASE
# UVM_INFO master_driver.sv(33) @ 110: uvm_test_top.h_env.h_master_agent.h_driv [APB_Driver] Packet in driver => --------------------------------------------------------------------------------------------------------
# Name                           Type          Size  Value                                                
# --------------------------------------------------------------------------------------------------------
# h_item                         apb_seq_item  -     @1050                                                
#   paddr                        integral      32    'h7                                                  
#   psel                         integral      1     'h0                                                  
#   penable                      integral      1     'h0                                                  
#   pwrite                       integral      1     'h1                                                  
#   pwdata                       integral      32    'hb3365fcf                                           
#   prdata                       integral      32    'h0                                                  
#   pslverr                      integral      1     'h0                                                  
#   pready                       integral      1     'h0                                                  
#   begin_time                   time          64    102                                                  
#   depth                        int           32    'd2                                                  
#   parent sequence (name)       string        12    h_mul_wr_seq                                         
#   parent sequence (full name)  string        53    uvm_test_top.h_env.h_master_agent.h_seqr.h_mul_wr_seq
#   sequencer                    string        40    uvm_test_top.h_env.h_master_agent.h_seqr             
# --------------------------------------------------------------------------------------------------------
#  items
# --------------------------------------------------------------------------------------------------------
# Name                           Type          Size  Value                                                
# --------------------------------------------------------------------------------------------------------
# h_item                         apb_seq_item  -     @1050                                                
#   paddr                        integral      32    'h7                                                  
#   psel                         integral      1     'h0                                                  
#   penable                      integral      1     'h0                                                  
#   pwrite                       integral      1     'h1                                                  
#   pwdata                       integral      32    'hb3365fcf                                           
#   prdata                       integral      32    'h0                                                  
#   pslverr                      integral      1     'h0                                                  
#   pready                       integral      1     'h0                                                  
#   begin_time                   time          64    102                                                  
#   end_time                     time          64    110                                                  
#   depth                        int           32    'd2                                                  
#   parent sequence (name)       string        12    h_mul_wr_seq                                         
#   parent sequence (full name)  string        53    uvm_test_top.h_env.h_master_agent.h_seqr.h_mul_wr_seq
#   sequencer                    string        40    uvm_test_top.h_env.h_master_agent.h_seqr             
# --------------------------------------------------------------------------------------------------------
# UVM_INFO apb_seq.sv(69) @ 110: uvm_test_top.h_env.h_master_agent.h_seqr@@h_mul_wr_seq [APB_SEQ ] Inside APB_SEQ BODY
# UVM_INFO apb_seq_item.sv(28) @ 114: reporter@@h_item [APB_SEQ_ITEM] Inside APB_ SEQ_item NEW 
# UVM_INFO master_monitor.sv(41) @ 114: uvm_test_top.h_env.h_master_agent.h_master_mon [MASTER_MONITOR] Packet in master_monitor => -----------------------------------------
# Name       Type          Size  Value     
# -----------------------------------------
# h_item     apb_seq_item  -     @1350     
#   paddr    integral      32    'h7       
#   psel     integral      1     'h1       
#   penable  integral      1     'h1       
#   pwrite   integral      1     'h1       
#   pwdata   integral      32    'hb3365fcf
#   prdata   integral      32    'h0       
#   pslverr  integral      1     'h0       
#   pready   integral      1     'h0       
# -----------------------------------------
#  items
# UVM_INFO apb_cov_collector.sv(41) @ 114: uvm_test_top.h_env.h_cov [coverage_collector] the functional coverage is:        86
# UVM_INFO apb_cov_collector.sv(42) @ 114: uvm_test_top.h_env.h_cov [APB_COV_COLLECTOR ] Inside APB_COV_COLLECTOR  RUN PHASE
# UVM_INFO apb_seq.sv(66) @ 114: uvm_test_top.h_env.h_master_agent.h_seqr@@h_mul_wr_seq [apb__seq] Done generation in sequence => --------------------------------------------------------------------------------------------------------
# Name                           Type          Size  Value                                                
# --------------------------------------------------------------------------------------------------------
# h_item                         apb_seq_item  -     @1050                                                
#   paddr                        integral      32    'h8                                                  
#   psel                         integral      1     'h0                                                  
#   penable                      integral      1     'h0                                                  
#   pwrite                       integral      1     'h1                                                  
#   pwdata                       integral      32    'h1eef4aa4                                           
#   prdata                       integral      32    'h0                                                  
#   pslverr                      integral      1     'h0                                                  
#   pready                       integral      1     'h0                                                  
#   begin_time                   time          64    114                                                  
#   depth                        int           32    'd2                                                  
#   parent sequence (name)       string        12    h_mul_wr_seq                                         
#   parent sequence (full name)  string        53    uvm_test_top.h_env.h_master_agent.h_seqr.h_mul_wr_seq
#   sequencer                    string        40    uvm_test_top.h_env.h_master_agent.h_seqr             
